X--Trace 1::[Channel A],Y--Trace 1::[Channel A],,X--Trace 2::[Channel B],Y--Trace 2::[Channel B]
0,0,,0,0
1e-008,6.28319e-006,,1e-008,4.76586e-005
2e-008,1.25664e-005,,2e-008,0.00012548
4e-008,2.51327e-005,,4e-008,0.000319276
8e-008,5.02655e-005,,8e-008,0.000812733
1.6e-007,0.000100531,,1.6e-007,0.00185285
3.2e-007,0.000201062,,3.2e-007,0.00392611
6.4e-007,0.000402123,,6.4e-007,0.00807238
1.28e-006,0.000804239,,1.28e-006,0.0163489
2.28e-006,0.00143252,,2.28e-006,0.029246
3.28e-006,0.00206074,,3.28e-006,0.0420965
4.28e-006,0.00268888,,4.28e-006,0.0549025
5.28e-006,0.00331691,,5.28e-006,0.067661
6.28e-006,0.00394482,,6.28e-006,0.0803739
7.28e-006,0.00457256,,7.28e-006,0.0930385
8.28e-006,0.00520013,,8.28e-006,0.105656
9.28e-006,0.00582749,,9.28e-006,0.118225
1.028e-005,0.00645462,,1.028e-005,0.130746
1.128e-005,0.0070815,,1.128e-005,0.143217
1.228e-005,0.0077081,,1.228e-005,0.155639
1.328e-005,0.00833439,,1.328e-005,0.16801
1.428e-005,0.00896035,,1.428e-005,0.180332
1.528e-005,0.00958597,,1.528e-005,0.192602
1.628e-005,0.0102112,,1.628e-005,0.204821
1.728e-005,0.010836,,1.728e-005,0.216988
1.828e-005,0.0114604,,1.828e-005,0.229103
1.928e-005,0.0120844,,1.928e-005,0.241166
2.028e-005,0.0127078,,2.028e-005,0.253176
2.128e-005,0.0133308,,2.128e-005,0.265132
2.228e-005,0.0139533,,2.228e-005,0.277035
2.328e-005,0.0145752,,2.328e-005,0.288883
2.428e-005,0.0151965,,2.428e-005,0.300677
2.528e-005,0.0158172,,2.528e-005,0.312417
2.628e-005,0.0164373,,2.628e-005,0.324101
2.728e-005,0.0170567,,2.728e-005,0.33573
2.828e-005,0.0176755,,2.828e-005,0.347303
2.928e-005,0.0182936,,2.928e-005,0.358819
3.028e-005,0.0189109,,3.028e-005,0.37028
3.128e-005,0.0195275,,3.128e-005,0.381683
3.228e-005,0.0201434,,3.228e-005,0.393029
3.328e-005,0.0207584,,3.328e-005,0.404318
3.428e-005,0.0213726,,3.428e-005,0.41555
3.528e-005,0.021986,,3.528e-005,0.426723
3.628e-005,0.0225985,,3.628e-005,0.437838
3.728e-005,0.0232101,,3.728e-005,0.448895
3.828e-005,0.0238208,,3.828e-005,0.459893
3.928e-005,0.0244306,,3.928e-005,0.470832
4.028e-005,0.0250394,,4.028e-005,0.481711
4.128e-005,0.0256472,,4.128e-005,0.492531
4.228e-005,0.0262539,,4.228e-005,0.503291
4.328e-005,0.0268597,,4.328e-005,0.513992
4.428e-005,0.0274644,,4.428e-005,0.524632
4.528e-005,0.028068,,4.528e-005,0.535211
4.628e-005,0.0286705,,4.628e-005,0.54573
4.728e-005,0.0292719,,4.728e-005,0.556188
4.828e-005,0.0298721,,4.828e-005,0.566586
4.928e-005,0.0304711,,4.928e-005,0.576922
5.028e-005,0.031069,,5.028e-005,0.587196
5.128e-005,0.0316656,,5.128e-005,0.597409
5.228e-005,0.0322609,,5.228e-005,0.607561
5.328e-005,0.032855,,5.328e-005,0.61765
5.428e-005,0.0334478,,5.428e-005,0.627677
5.528e-005,0.0340393,,5.528e-005,0.637643
5.628e-005,0.0346294,,5.628e-005,0.647546
5.728e-005,0.0352181,,5.728e-005,0.657386
5.828e-005,0.0358055,,5.828e-005,0.667164
5.928e-005,0.0363915,,5.928e-005,0.676879
6.028e-005,0.036976,,6.028e-005,0.686532
6.128e-005,0.037559,,6.128e-005,0.696121
6.228e-005,0.0381406,,6.228e-005,0.705648
6.328e-005,0.0387207,,6.328e-005,0.715111
6.428e-005,0.0392992,,6.428e-005,0.724512
6.528e-005,0.0398762,,6.528e-005,0.733849
6.628e-005,0.0404516,,6.628e-005,0.743123
6.728e-005,0.0410254,,6.728e-005,0.752333
6.828e-005,0.0415976,,6.828e-005,0.76148
6.928e-005,0.0421682,,6.928e-005,0.770563
7.028e-005,0.042737,,7.028e-005,0.779583
7.128e-005,0.0433042,,7.128e-005,0.788539
7.228e-005,0.0438697,,7.228e-005,0.797432
7.328e-005,0.0444335,,7.328e-005,0.806261
7.428e-005,0.0449955,,7.428e-005,0.815026
7.528e-005,0.0455557,,7.528e-005,0.823728
7.628e-005,0.0461142,,7.628e-005,0.832366
7.728e-005,0.0466708,,7.728e-005,0.84094
7.828e-005,0.0472255,,7.828e-005,0.849451
7.928e-005,0.0477784,,7.928e-005,0.857898
8.028e-005,0.0483295,,8.028e-005,0.866281
8.128e-005,0.0488786,,8.128e-005,0.874601
8.228e-005,0.0494257,,8.228e-005,0.882856
8.328e-005,0.049971,,8.328e-005,0.891049
8.428e-005,0.0505142,,8.428e-005,0.899177
8.528e-005,0.0510555,,8.528e-005,0.907243
8.628e-005,0.0515947,,8.628e-005,0.915244
8.728e-005,0.0521319,,8.728e-005,0.923182
8.828e-005,0.0526671,,8.828e-005,0.931057
8.928e-005,0.0532002,,8.928e-005,0.938869
9.028e-005,0.0537311,,9.028e-005,0.946617
9.128e-005,0.05426,,9.128e-005,0.954302
9.228e-005,0.0547867,,9.228e-005,0.961924
9.328e-005,0.0553112,,9.328e-005,0.969483
9.428e-005,0.0558336,,9.428e-005,0.976979
9.528e-005,0.0563538,,9.528e-005,0.984412
9.628e-005,0.0568717,,9.628e-005,0.991782
9.728e-005,0.0573874,,9.728e-005,0.99909
9.828e-005,0.0579008,,9.828e-005,1.00634
9.928e-005,0.0584119,,9.928e-005,1.01352
0.00010028,0.0589208,,0.00010028,1.02064
0.00010128,0.0594273,,0.00010128,1.0277
0.00010228,0.0599314,,0.00010228,1.03469
0.00010328,0.0604332,,0.00010328,1.04163
0.00010428,0.0609326,,0.00010428,1.0485
0.00010528,0.0614296,,0.00010528,1.05531
0.00010628,0.0619242,,0.00010628,1.06206
0.00010728,0.0624163,,0.00010728,1.06875
0.00010828,0.062906,,0.00010828,1.07537
0.00010928,0.0633932,,0.00010928,1.08194
0.00011028,0.0638779,,0.00011028,1.08844
0.00011128,0.06436,,0.00011128,1.09489
0.00011228,0.0648396,,0.00011228,1.10127
0.00011328,0.0653167,,0.00011328,1.10759
0.00011428,0.0657912,,0.00011428,1.11385
0.00011528,0.0662631,,0.00011528,1.12005
0.00011628,0.0667323,,0.00011628,1.1262
0.00011728,0.0671989,,0.00011728,1.13228
0.00011828,0.0676629,,0.00011828,1.1383
0.00011928,0.0681242,,0.00011928,1.14426
0.00012028,0.0685829,,0.00012028,1.15017
0.00012128,0.0690388,,0.00012128,1.15601
0.00012228,0.0694919,,0.00012228,1.1618
0.00012328,0.0699424,,0.00012328,1.16753
0.00012428,0.0703901,,0.00012428,1.1732
0.00012528,0.070835,,0.00012528,1.17881
0.00012628,0.0712771,,0.00012628,1.18436
0.00012728,0.0717164,,0.00012728,1.18985
0.00012828,0.0721528,,0.00012828,1.19529
0.00012928,0.0725864,,0.00012928,1.20067
0.00013028,0.0730172,,0.00013028,1.20599
0.00013128,0.073445,,0.00013128,1.21126
0.00013228,0.07387,,0.00013228,1.21647
0.00013328,0.0742921,,0.00013328,1.22162
0.00013428,0.0747112,,0.00013428,1.22672
0.00013528,0.0751273,,0.00013528,1.23176
0.00013628,0.0755405,,0.00013628,1.23674
0.00013728,0.0759508,,0.00013728,1.24167
0.00013828,0.076358,,0.00013828,1.24654
0.00013928,0.0767622,,0.00013928,1.25136
0.00014028,0.0771633,,0.00014028,1.25612
0.00014128,0.0775615,,0.00014128,1.26083
0.00014228,0.0779565,,0.00014228,1.26549
0.00014328,0.0783485,,0.00014328,1.27008
0.00014428,0.0787374,,0.00014428,1.27463
0.00014528,0.0791232,,0.00014528,1.27912
0.00014628,0.0795059,,0.00014628,1.28356
0.00014728,0.0798854,,0.00014728,1.28795
0.00014828,0.0802618,,0.00014828,1.29228
0.00014928,0.080635,,0.00014928,1.29656
0.00015028,0.081005,,0.00015028,1.30078
0.00015128,0.0813718,,0.00015128,1.30496
0.00015228,0.0817354,,0.00015228,1.30908
0.00015328,0.0820958,,0.00015328,1.31315
0.00015428,0.0824529,,0.00015428,1.31717
0.00015528,0.0828068,,0.00015528,1.32114
0.00015628,0.0831574,,0.00015628,1.32505
0.00015728,0.0835048,,0.00015728,1.32892
0.00015828,0.0838488,,0.00015828,1.33273
0.00015928,0.0841895,,0.00015928,1.3365
0.00016028,0.0845269,,0.00016028,1.34021
0.00016128,0.084861,,0.00016128,1.34388
0.00016228,0.0851917,,0.00016228,1.34749
0.00016328,0.0855191,,0.00016328,1.35106
0.00016428,0.085843,,0.00016428,1.35457
0.00016528,0.0861636,,0.00016528,1.35804
0.00016628,0.0864808,,0.00016628,1.36146
0.00016728,0.0867946,,0.00016728,1.36483
0.00016828,0.0871049,,0.00016828,1.36815
0.00016928,0.0874118,,0.00016928,1.37143
0.00017028,0.0877153,,0.00017028,1.37466
0.00017128,0.0880153,,0.00017128,1.37784
0.00017228,0.0883118,,0.00017228,1.38097
0.00017328,0.0886048,,0.00017328,1.38405
0.00017428,0.0888944,,0.00017428,1.38709
0.00017528,0.0891804,,0.00017528,1.39008
0.00017628,0.0894629,,0.00017628,1.39303
0.00017728,0.0897419,,0.00017728,1.39593
0.00017828,0.0900173,,0.00017828,1.39878
0.00017928,0.0902892,,0.00017928,1.40159
0.00018028,0.0905575,,0.00018028,1.40436
0.00018128,0.0908222,,0.00018128,1.40707
0.00018228,0.0910834,,0.00018228,1.40975
0.00018328,0.0913409,,0.00018328,1.41238
0.00018428,0.0915949,,0.00018428,1.41496
0.00018528,0.0918452,,0.00018528,1.4175
0.00018628,0.0920919,,0.00018628,1.42
0.00018728,0.092335,,0.00018728,1.42245
0.00018828,0.0925744,,0.00018828,1.42486
0.00018928,0.0928102,,0.00018928,1.42722
0.00019028,0.0930423,,0.00019028,1.42954
0.00019128,0.0932707,,0.00019128,1.43182
0.00019228,0.0934955,,0.00019228,1.43406
0.00019328,0.0937165,,0.00019328,1.43625
0.00019428,0.0939339,,0.00019428,1.43841
0.00019528,0.0941475,,0.00019528,1.44051
0.00019628,0.0943575,,0.00019628,1.44258
0.00019728,0.0945637,,0.00019728,1.44461
0.00019828,0.0947661,,0.00019828,1.44659
0.00019928,0.0949649,,0.00019928,1.44854
0.00020028,0.0951599,,0.00020028,1.45044
0.00020128,0.0953511,,0.00020128,1.4523
0.00020228,0.0955386,,0.00020228,1.45412
0.00020328,0.0957223,,0.00020328,1.4559
0.00020428,0.0959022,,0.00020428,1.45764
0.00020528,0.0960783,,0.00020528,1.45934
0.00020628,0.0962506,,0.00020628,1.46099
0.00020728,0.0964192,,0.00020728,1.46261
0.00020828,0.0965839,,0.00020828,1.46419
0.00020928,0.0967448,,0.00020928,1.46573
0.00021028,0.0969019,,0.00021028,1.46723
0.00021128,0.0970552,,0.00021128,1.46869
0.00021228,0.0972046,,0.00021228,1.47011
0.00021328,0.0973502,,0.00021328,1.4715
0.00021428,0.097492,,0.00021428,1.47284
0.00021528,0.0976299,,0.00021528,1.47414
0.00021628,0.097764,,0.00021628,1.47541
0.00021728,0.0978942,,0.00021728,1.47664
0.00021828,0.0980205,,0.00021828,1.47783
0.00021928,0.098143,,0.00021928,1.47898
0.00022028,0.0982615,,0.00022028,1.48009
0.00022128,0.0983762,,0.00022128,1.48117
0.00022228,0.0984871,,0.00022228,1.4822
0.00022328,0.098594,,0.00022328,1.4832
0.00022428,0.0986971,,0.00022428,1.48416
0.00022528,0.0987962,,0.00022528,1.48509
0.00022628,0.0988915,,0.00022628,1.48598
0.00022728,0.0989828,,0.00022728,1.48682
0.00022828,0.0990702,,0.00022828,1.48764
0.00022928,0.0991538,,0.00022928,1.48841
0.00023028,0.0992334,,0.00023028,1.48915
0.00023128,0.0993091,,0.00023128,1.48985
0.00023228,0.0993808,,0.00023228,1.49052
0.00023328,0.0994487,,0.00023328,1.49114
0.00023428,0.0995126,,0.00023428,1.49173
0.00023528,0.0995726,,0.00023528,1.49229
0.00023628,0.0996287,,0.00023628,1.4928
0.00023728,0.0996808,,0.00023728,1.49328
0.00023828,0.099729,,0.00023828,1.49373
0.00023928,0.0997732,,0.00023928,1.49414
0.00024028,0.0998136,,0.00024028,1.49451
0.00024128,0.0998499,,0.00024128,1.49484
0.00024228,0.0998824,,0.00024228,1.49514
0.00024328,0.0999109,,0.00024328,1.4954
0.00024428,0.0999354,,0.00024428,1.49563
0.00024528,0.099956,,0.00024528,1.49582
0.00024628,0.0999727,,0.00024628,1.49597
0.00024728,0.0999854,,0.00024728,1.49609
0.00024828,0.0999942,,0.00024828,1.49617
0.00024928,0.099999,,0.00024928,1.49621
0.00025028,0.0999998,,0.00025028,1.49622
0.00025128,0.0999968,,0.00025128,1.4962
0.00025228,0.0999897,,0.00025228,1.49613
0.00025328,0.0999788,,0.00025328,1.49603
0.00025428,0.0999638,,0.00025428,1.49589
0.00025528,0.099945,,0.00025528,1.49572
0.00025628,0.0999222,,0.00025628,1.49551
0.00025728,0.0998954,,0.00025728,1.49527
0.00025828,0.0998647,,0.00025828,1.49499
0.00025928,0.0998301,,0.00025928,1.49467
0.00026028,0.0997915,,0.00026028,1.49432
0.00026128,0.0997489,,0.00026128,1.49392
0.00026228,0.0997025,,0.00026228,1.4935
0.00026328,0.0996521,,0.00026328,1.49303
0.00026428,0.0995978,,0.00026428,1.49253
0.00026528,0.0995395,,0.00026528,1.492
0.00026628,0.0994773,,0.00026628,1.49142
0.00026728,0.0994112,,0.00026728,1.49081
0.00026828,0.0993411,,0.00026828,1.49017
0.00026928,0.0992672,,0.00026928,1.48948
0.00027028,0.0991893,,0.00027028,1.48876
0.00027128,0.0991075,,0.00027128,1.48801
0.00027228,0.0990217,,0.00027228,1.48721
0.00027328,0.0989321,,0.00027328,1.48638
0.00027428,0.0988386,,0.00027428,1.48551
0.00027528,0.0987412,,0.00027528,1.4846
0.00027628,0.0986398,,0.00027628,1.48366
0.00027728,0.0985346,,0.00027728,1.48268
0.00027828,0.0984255,,0.00027828,1.48166
0.00027928,0.0983125,,0.00027928,1.4806
0.00028028,0.0981956,,0.00028028,1.4795
0.00028128,0.0980748,,0.00028128,1.47837
0.00028228,0.0979502,,0.00028228,1.4772
0.00028328,0.0978217,,0.00028328,1.47599
0.00028428,0.0976894,,0.00028428,1.47474
0.00028528,0.0975531,,0.00028528,1.47346
0.00028628,0.0974131,,0.00028628,1.47213
0.00028728,0.0972692,,0.00028728,1.47077
0.00028828,0.0971214,,0.00028828,1.46936
0.00028928,0.0969698,,0.00028928,1.46792
0.00029028,0.0968144,,0.00029028,1.46644
0.00029128,0.0966552,,0.00029128,1.46492
0.00029228,0.0964921,,0.00029228,1.46336
0.00029328,0.0963253,,0.00029328,1.46176
0.00029428,0.0961546,,0.00029428,1.46012
0.00029528,0.0959801,,0.00029528,1.45844
0.00029628,0.0958019,,0.00029628,1.45672
0.00029728,0.0956199,,0.00029728,1.45496
0.00029828,0.095434,,0.00029828,1.45316
0.00029928,0.0952445,,0.00029928,1.45132
0.00030028,0.0950511,,0.00030028,1.44943
0.00030128,0.0948541,,0.00030128,1.44751
0.00030228,0.0946532,,0.00030228,1.44555
0.00030328,0.0944487,,0.00030328,1.44354
0.00030428,0.0942404,,0.00030428,1.44149
0.00030528,0.0940283,,0.00030528,1.4394
0.00030628,0.0938126,,0.00030628,1.43727
0.00030728,0.0935932,,0.00030728,1.4351
0.00030828,0.09337,,0.00030828,1.43288
0.00030928,0.0931432,,0.00030928,1.43062
0.00031028,0.0929127,,0.00031028,1.42832
0.00031128,0.0926786,,0.00031128,1.42597
0.00031228,0.0924408,,0.00031228,1.42358
0.00031328,0.0921993,,0.00031328,1.42115
0.00031428,0.0919542,,0.00031428,1.41868
0.00031528,0.0917055,,0.00031528,1.41616
0.00031628,0.0914531,,0.00031628,1.41359
0.00031728,0.0911971,,0.00031728,1.41099
0.00031828,0.0909376,,0.00031828,1.40833
0.00031928,0.0906744,,0.00031928,1.40564
0.00032028,0.0904077,,0.00032028,1.4029
0.00032128,0.0901374,,0.00032128,1.40011
0.00032228,0.0898635,,0.00032228,1.39728
0.00032328,0.0895861,,0.00032328,1.3944
0.00032428,0.0893051,,0.00032428,1.39147
0.00032528,0.0890206,,0.00032528,1.3885
0.00032628,0.0887327,,0.00032628,1.38549
0.00032728,0.0884412,,0.00032728,1.38242
0.00032828,0.0881462,,0.00032828,1.37931
0.00032928,0.0878477,,0.00032928,1.37616
0.00033028,0.0875458,,0.00033028,1.37295
0.00033128,0.0872404,,0.00033128,1.3697
0.00033228,0.0869316,,0.00033228,1.3664
0.00033328,0.0866193,,0.00033328,1.36305
0.00033428,0.0863036,,0.00033428,1.35965
0.00033528,0.0859845,,0.00033528,1.35621
0.00033628,0.085662,,0.00033628,1.35272
0.00033728,0.0853362,,0.00033728,1.34917
0.00033828,0.0850069,,0.00033828,1.34558
0.00033928,0.0846743,,0.00033928,1.34194
0.00034028,0.0843384,,0.00034028,1.33825
0.00034128,0.0839991,,0.00034128,1.33451
0.00034228,0.0836565,,0.00034228,1.33072
0.00034328,0.0833107,,0.00034328,1.32688
0.00034428,0.0829615,,0.00034428,1.32298
0.00034528,0.082609,,0.00034528,1.31904
0.00034628,0.0822533,,0.00034628,1.31505
0.00034728,0.0818944,,0.00034728,1.311
0.00034828,0.0815322,,0.00034828,1.3069
0.00034928,0.0811668,,0.00034928,1.30275
0.00035028,0.0807982,,0.00035028,1.29855
0.00035128,0.0804264,,0.00035128,1.2943
0.00035228,0.0800514,,0.00035228,1.28999
0.00035328,0.0796732,,0.00035328,1.28563
0.00035428,0.079292,,0.00035428,1.28122
0.00035528,0.0789076,,0.00035528,1.27675
0.00035628,0.07852,,0.00035628,1.27223
0.00035728,0.0781294,,0.00035728,1.26765
0.00035828,0.0777357,,0.00035828,1.26303
0.00035928,0.0773389,,0.00035928,1.25834
0.00036028,0.0769391,,0.00036028,1.25361
0.00036128,0.0765362,,0.00036128,1.24881
0.00036228,0.0761303,,0.00036228,1.24397
0.00036328,0.0757214,,0.00036328,1.23907
0.00036428,0.0753095,,0.00036428,1.23411
0.00036528,0.0748946,,0.00036528,1.22909
0.00036628,0.0744768,,0.00036628,1.22402
0.00036728,0.0740561,,0.00036728,1.2189
0.00036828,0.0736324,,0.00036828,1.21372
0.00036928,0.0732058,,0.00036928,1.20848
0.00037028,0.0727763,,0.00037028,1.20318
0.00037128,0.072344,,0.00037128,1.19783
0.00037228,0.0719088,,0.00037228,1.19242
0.00037328,0.0714707,,0.00037328,1.18695
0.00037428,0.0710298,,0.00037428,1.18143
0.00037528,0.0705862,,0.00037528,1.17584
0.00037628,0.0701397,,0.00037628,1.1702
0.00037728,0.0696905,,0.00037728,1.1645
0.00037828,0.0692385,,0.00037828,1.15874
0.00037928,0.0687838,,0.00037928,1.15293
0.00038028,0.0683264,,0.00038028,1.14705
0.00038128,0.0678662,,0.00038128,1.14111
0.00038228,0.0674034,,0.00038228,1.13512
0.00038328,0.066938,,0.00038328,1.12907
0.00038428,0.0664699,,0.00038428,1.12295
0.00038528,0.0659991,,0.00038528,1.11678
0.00038628,0.0655258,,0.00038628,1.11054
0.00038728,0.0650499,,0.00038728,1.10425
0.00038828,0.0645714,,0.00038828,1.0979
0.00038928,0.0640903,,0.00038928,1.09148
0.00039028,0.0636067,,0.00039028,1.08501
0.00039128,0.0631207,,0.00039128,1.07847
0.00039228,0.0626321,,0.00039228,1.07187
0.00039328,0.062141,,0.00039328,1.06521
0.00039428,0.0616475,,0.00039428,1.05849
0.00039528,0.0611516,,0.00039528,1.05171
0.00039628,0.0606532,,0.00039628,1.04487
0.00039728,0.0601525,,0.00039728,1.03796
0.00039828,0.0596494,,0.00039828,1.031
0.00039928,0.0591439,,0.00039928,1.02397
0.00040028,0.0586361,,0.00040028,1.01688
0.00040128,0.058126,,0.00040128,1.00973
0.00040228,0.0576136,,0.00040228,1.00251
0.00040328,0.0570989,,0.00040328,0.995231
0.00040428,0.0565819,,0.00040428,0.987891
0.00040528,0.0560627,,0.00040528,0.980487
0.00040628,0.0555413,,0.00040628,0.973021
0.00040728,0.0550178,,0.00040728,0.965492
0.00040828,0.054492,,0.00040828,0.9579
0.00040928,0.0539641,,0.00040928,0.950245
0.00041028,0.0534341,,0.00041028,0.942527
0.00041128,0.0529019,,0.00041128,0.934745
0.00041228,0.0523677,,0.00041228,0.9269
0.00041328,0.0518314,,0.00041328,0.918992
0.00041428,0.051293,,0.00041428,0.911021
0.00041528,0.0507526,,0.00041528,0.902986
0.00041628,0.0502103,,0.00041628,0.894887
0.00041728,0.0496659,,0.00041728,0.886725
0.00041828,0.0491196,,0.00041828,0.878499
0.00041928,0.0485713,,0.00041928,0.87021
0.00042028,0.0480211,,0.00042028,0.861857
0.00042128,0.047469,,0.00042128,0.85344
0.00042228,0.0469151,,0.00042228,0.84496
0.00042328,0.0463593,,0.00042328,0.836416
0.00042428,0.0458017,,0.00042428,0.827808
0.00042528,0.0452422,,0.00042528,0.819137
0.00042628,0.044681,,0.00042628,0.810402
0.00042728,0.044118,,0.00042728,0.801603
0.00042828,0.0435533,,0.00042828,0.792741
0.00042928,0.0429868,,0.00042928,0.783815
0.00043028,0.0424187,,0.00043028,0.774825
0.00043128,0.0418489,,0.00043128,0.765772
0.00043228,0.0412774,,0.00043228,0.756655
0.00043328,0.0407043,,0.00043328,0.747475
0.00043428,0.0401296,,0.00043428,0.738231
0.00043528,0.0395533,,0.00043528,0.728924
0.00043628,0.0389754,,0.00043628,0.719554
0.00043728,0.038396,,0.00043728,0.710121
0.00043828,0.0378151,,0.00043828,0.700624
0.00043928,0.0372327,,0.00043928,0.691065
0.00044028,0.0366488,,0.00044028,0.681442
0.00044128,0.0360635,,0.00044128,0.671757
0.00044228,0.0354768,,0.00044228,0.662009
0.00044328,0.0348886,,0.00044328,0.652198
0.00044428,0.0342991,,0.00044428,0.642325
0.00044528,0.0337082,,0.00044528,0.632389
0.00044628,0.033116,,0.00044628,0.622392
0.00044728,0.0325225,,0.00044728,0.612332
0.00044828,0.0319277,,0.00044828,0.60221
0.00044928,0.0313316,,0.00044928,0.592027
0.00045028,0.0307343,,0.00045028,0.581781
0.00045128,0.0301358,,0.00045128,0.571475
0.00045228,0.0295361,,0.00045228,0.561107
0.00045328,0.0289353,,0.00045328,0.550678
0.00045428,0.0283333,,0.00045428,0.540188
0.00045528,0.0277301,,0.00045528,0.529637
0.00045628,0.0271259,,0.00045628,0.519026
0.00045728,0.0265206,,0.00045728,0.508355
0.00045828,0.0259143,,0.00045828,0.497623
0.00045928,0.0253069,,0.00045928,0.486832
0.00046028,0.0246985,,0.00046028,0.475981
0.00046128,0.0240892,,0.00046128,0.46507
0.00046228,0.0234789,,0.00046228,0.454101
0.00046328,0.0228677,,0.00046328,0.443072
0.00046428,0.0222556,,0.00046428,0.431985
0.00046528,0.0216426,,0.00046528,0.42084
